
T2EA8 000:081 SEGGER J-Link V4.68 Log File (0001ms, 0081ms total)
T2EA8 000:081 DLL Compiled: Apr  6 2013 00:10:46 (0001ms, 0081ms total)
T2EA8 000:081 Logging started @ 2016-07-05 13:54 (0001ms, 0081ms total)
T2EA8 000:082 JLINK_SetWarnOutHandler(...) (0000ms, 0081ms total)
T2EA8 000:082 JLINK_OpenEx(...)
Firmware: J-Link ARM-OB STM32 compiled Aug 22 2012 19:52:04
Hardware: V7.00
S/N: 20090928
Feature(s): RDI,FlashDL,FlashBP,JFlash,GDBFull  returns O.K. (0029ms, 0110ms total)
T2EA8 000:111 JLINK_SetErrorOutHandler(...) (0000ms, 0110ms total)
T2EA8 000:111 JLINK_ExecCommand("ProjectFile = "F:\electricity\光电设计大赛\aircraft_code\JLinkSettings.ini"", ...)
                JLINK_AddMirrorAreaEx(Addr = 0x00000000, Size = 0x00000000) (0000ms, 0000ms total)
              Device "UNSPECIFIED" selected (0 KB flash, 0 KB RAM).  returns 0x00 (0002ms, 0112ms total)
T2EA8 000:113 JLINK_ExecCommand("Device = STM32F407VETx", ...)
                JLINK_AddMirrorAreaEx(Addr = 0x00000000, Size = 0x00000000) (0000ms, 0000ms total)
              Device "UNSPECIFIED" selected (0 KB flash, 0 KB RAM).  returns 0x00 (0001ms, 0113ms total)
T2EA8 000:114 JLINK_ExecCommand("DisableConnectionTimeout", ...)  returns 0x00 (0000ms, 0113ms total)
T2EA8 000:114 JLINK_GetHardwareVersion()  returns 0x11170 (0000ms, 0113ms total)
T2EA8 000:115 JLINK_GetDLLVersion()  returns 46800 (0000ms, 0114ms total)
T2EA8 000:115 JLINK_GetFirmwareString(...) (0000ms, 0114ms total)
T2EA8 000:115 JLINK_GetDLLVersion()  returns 46800 (0000ms, 0114ms total)
T2EA8 000:115 JLINK_GetCompileDateTime() (0000ms, 0114ms total)
T2EA8 000:116 JLINK_GetFirmwareString(...) (0000ms, 0114ms total)
T2EA8 000:116 JLINK_GetHardwareVersion()  returns 0x11170 (0000ms, 0114ms total)
T2EA8 000:117 JLINK_TIF_Select(JLINKARM_TIF_SWD)  returns 0x00 (0004ms, 0118ms total)
T2EA8 000:121 JLINK_SetSpeed(5000) (0001ms, 0119ms total)
T2EA8 000:122 JLINK_GetId() >0x108 TIF>Found SWD-DP with ID 0x2BA01477 >0x0D TIF> >0x21 TIF> >0x0D TIF> >0x28 TIF> >0x0D TIF> >0x28 TIF> >0x0D TIF> >0x21 TIF> >0x0D TIF> >0x21 TIF> >0x0D TIF> >0x28 TIF> >0x0D TIF> >0x21 TIF> >0x0D TIF> >0x21 TIF> >0x0D TIF> >0x21 TIF> >0x0D TIF> >0x21 TIF> >0x0D TIF> >0x21 TIF> >0x0D TIF> >0x28 TIF> >0x0D TIF> >0x28 TIF> >0x0D TIF> >0x21 TIF> >0x0D TIF> >0x21 TIF> >0x0D TIF> >0x28 TIF> >0x0D TIF> >0x21 TIF> >0x0D TIF> >0x21 TIF> >0x0D TIF> >0x28 TIF> >0x0D TIF>
 >0x28 TIF> >0x0D TIF> >0x28 TIF> >0x0D TIF> >0x21 TIF> >0x0D TIF> >0x21 TIF> >0x0D TIF> >0x28 TIF> >0x0D TIF> >0x28 TIF> >0x0D TIF> >0x28 TIF> >0x0D TIF> >0x21 TIF> >0x0D TIF> >0x21 TIF> >0x0D TIF> >0x21 TIF>TPIU fitted.ETM fitted. >0x0D TIF> >0x28 TIF> >0x0D TIF> >0x21 TIF> >0x0D TIF> >0x21 TIF> >0x0D TIF> >0x28 TIF> >0x0D TIF> >0x21 TIF> >0x0D TIF> >0x21 TIF>FPUnit: 6 code (BP) slots and 2 literal slots >0x0D TIF> >0x28 TIF> >0x0D TIF> >0x21 TIF> >0x0D TIF> >0x21 TIF> >0x0D TIF> >0x28 TIF> >0x0D TIF>
 >0x21 TIF> >0x0D TIF> >0x21 TIF> >0x0D TIF> >0x28 TIF> >0x0D TIF> >0x21 TIF> >0x0D TIF> >0x21 TIF> >0x0D TIF> >0x28 TIF> >0x0D TIF> >0x21 TIF> >0x0D TIF> >0x21 TIF>Found Cortex-M4 r0p1, Little endian. >0x0D TIF> >0x21 TIF>  returns 0x2BA01477 (0106ms, 0225ms total)
T2EA8 000:228 JLINK_GetDLLVersion()  returns 46800 (0000ms, 0225ms total)
T2EA8 000:228 JLINK_CORE_GetFound()  returns 0xE0000FF (0000ms, 0225ms total)
T2EA8 000:228 JLINK_ReadMem (0xE00FF000, 0x0020 Bytes, ...) -- CPU is running -- CPU_ReadMem(32 bytes @ 0xE00FF000) -- Data:  03 F0 F0 FF 03 20 F0 FF 03 30 F0 FF 03 10 F0 FF ...  returns 0x00 (0002ms, 0227ms total)
T2EA8 000:230 JLINK_ReadMem (0xE000EFF0, 0x0010 Bytes, ...) -- CPU is running -- CPU_ReadMem(16 bytes @ 0xE000EFF0) -- Data:  0D 00 00 00 E0 00 00 00 05 00 00 00 B1 00 00 00  returns 0x00 (0001ms, 0228ms total)
T2EA8 000:231 JLINK_ReadMem (0xE000EFD0, 0x0020 Bytes, ...) -- CPU is running -- CPU_ReadMem(32 bytes @ 0xE000EFD0) -- Data:  04 00 00 00 00 00 00 00 00 00 00 00 00 00 00 00 ...  returns 0x00 (0001ms, 0229ms total)
T2EA8 000:232 JLINK_ReadMem (0xE0001FF0, 0x0010 Bytes, ...) -- CPU is running -- CPU_ReadMem(16 bytes @ 0xE0001FF0) -- Data:  0D 00 00 00 E0 00 00 00 05 00 00 00 B1 00 00 00  returns 0x00 (0001ms, 0230ms total)
T2EA8 000:233 JLINK_ReadMem (0xE0001FD0, 0x0020 Bytes, ...) -- CPU is running -- CPU_ReadMem(32 bytes @ 0xE0001FD0) -- Data:  04 00 00 00 00 00 00 00 00 00 00 00 00 00 00 00 ...  returns 0x00 (0001ms, 0231ms total)
T2EA8 000:234 JLINK_ReadMem (0xE0002FF0, 0x0010 Bytes, ...) -- CPU is running -- CPU_ReadMem(16 bytes @ 0xE0002FF0) -- Data:  0D 00 00 00 E0 00 00 00 05 00 00 00 B1 00 00 00  returns 0x00 (0001ms, 0232ms total)
T2EA8 000:235 JLINK_ReadMem (0xE0002FD0, 0x0020 Bytes, ...) -- CPU is running -- CPU_ReadMem(32 bytes @ 0xE0002FD0) -- Data:  04 00 00 00 00 00 00 00 00 00 00 00 00 00 00 00 ...  returns 0x00 (0002ms, 0234ms total)
T2EA8 000:237 JLINK_ReadMem (0xE0000FF0, 0x0010 Bytes, ...) -- CPU is running -- CPU_ReadMem(16 bytes @ 0xE0000FF0) -- Data:  0D 00 00 00 E0 00 00 00 05 00 00 00 B1 00 00 00  returns 0x00 (0001ms, 0235ms total)
T2EA8 000:238 JLINK_ReadMem (0xE0000FD0, 0x0020 Bytes, ...) -- CPU is running -- CPU_ReadMem(32 bytes @ 0xE0000FD0) -- Data:  04 00 00 00 00 00 00 00 00 00 00 00 00 00 00 00 ...  returns 0x00 (0001ms, 0236ms total)
T2EA8 000:239 JLINK_ReadMem (0xE0040FF0, 0x0010 Bytes, ...) -- CPU is running -- CPU_ReadMem(16 bytes @ 0xE0040FF0) -- Data:  0D 00 00 00 90 00 00 00 05 00 00 00 B1 00 00 00  returns 0x00 (0001ms, 0237ms total)
T2EA8 000:240 JLINK_ReadMem (0xE0040FD0, 0x0020 Bytes, ...) -- CPU is running -- CPU_ReadMem(32 bytes @ 0xE0040FD0) -- Data:  04 00 00 00 00 00 00 00 00 00 00 00 00 00 00 00 ...  returns 0x00 (0001ms, 0238ms total)
T2EA8 000:241 JLINK_ReadMem (0xE0041FF0, 0x0010 Bytes, ...) -- CPU is running -- CPU_ReadMem(16 bytes @ 0xE0041FF0) -- Data:  0D 00 00 00 90 00 00 00 05 00 00 00 B1 00 00 00  returns 0x00 (0001ms, 0239ms total)
T2EA8 000:242 JLINK_ReadMem (0xE0041FD0, 0x0020 Bytes, ...) -- CPU is running -- CPU_ReadMem(32 bytes @ 0xE0041FD0) -- Data:  04 00 00 00 00 00 00 00 00 00 00 00 00 00 00 00 ...  returns 0x00 (0001ms, 0240ms total)
T2EA8 000:243 JLINK_ReadMemU32(0xE000EF40, 0x0001 Items, ...) -- CPU is running -- CPU_ReadMem(4 bytes @ 0xE000EF40) -- Data:  21 00 11 10  returns 0x01 (0001ms, 0241ms total)
T2EA8 000:244 JLINK_ReadMemU32(0xE000EF44, 0x0001 Items, ...) -- CPU is running -- CPU_ReadMem(4 bytes @ 0xE000EF44) -- Data:  11 00 00 11  returns 0x01 (0001ms, 0242ms total)
T2EA8 000:245 JLINK_ReadMemU32(0xE000ED00, 0x0001 Items, ...) -- CPU is running -- CPU_ReadMem(4 bytes @ 0xE000ED00) -- Data:  41 C2 0F 41  returns 0x01 (0001ms, 0243ms total)
T2EA8 000:246 JLINK_SetResetType(JLINKARM_RESET_TYPE_NORMAL)  returns JLINKARM_RESET_TYPE_NORMAL (0000ms, 0243ms total)
T2EA8 000:246 JLINK_Reset() -- CPU is running -- CPU_WriteMem(4 bytes @ 0xE000EDF0) -- CPU is running -- CPU_WriteMem(4 bytes @ 0xE000EDFC) >0x35 TIF> -- CPU is running -- CPU_WriteMem(4 bytes @ 0xE000ED0C) -- CPU is running -- CPU_ReadMem(4 bytes @ 0xE000EDF0) -- CPU is running -- CPU_ReadMem(4 bytes @ 0xE000EDF0) -- CPU is running -- CPU_WriteMem(4 bytes @ 0xE000EDF0) -- CPU is running -- CPU_WriteMem(4 bytes @ 0xE000EDFC) -- CPU is running -- CPU_ReadMem(4 bytes @ 0xE000EDF0)
 -- CPU_WriteMem(4 bytes @ 0xE0002000) (0025ms, 0268ms total)
T2EA8 000:271 JLINK_ReadReg(R15)  returns 0x0800F7C8 (0000ms, 0268ms total)
T2EA8 000:271 JLINK_ReadReg(XPSR)  returns 0x01000000 (0000ms, 0268ms total)
T2EA8 000:271 JLINK_Halt()  returns 0x00 (0001ms, 0269ms total)
T2EA8 000:272 JLINK_IsHalted()  returns TRUE (0000ms, 0269ms total)
T2EA8 000:272 JLINK_ReadMemU32(0xE000EDF0, 0x0001 Items, ...) -- CPU_ReadMem(4 bytes @ 0xE000EDF0) -- Data:  03 00 03 00  returns 0x01 (0001ms, 0270ms total)
T2EA8 000:273 JLINK_WriteU32(0xE000EDF0, 0xA05F0003) -- CPU_WriteMem(4 bytes @ 0xE000EDF0)  returns 0x00 (0002ms, 0272ms total)
T2EA8 000:275 JLINK_WriteU32(0xE000EDFC, 0x01000000) -- CPU_WriteMem(4 bytes @ 0xE000EDFC)  returns 0x00 (0001ms, 0273ms total)
T2EA8 000:278 JLINK_GetHWStatus(...)  returns 0x00 (0001ms, 0274ms total)
T2EA8 000:281 JLINK_GetNumBPUnits(Type = 0xFFFFFF00)  returns 0x06 (0000ms, 0274ms total)
T2EA8 000:281 JLINK_GetNumBPUnits(Type = 0xF0)  returns 0x2000 (0000ms, 0274ms total)
T2EA8 000:281 JLINK_GetNumWPUnits()  returns 0x04 (0000ms, 0274ms total)
T2EA8 000:283 JLINK_GetSpeed()  returns 0xFA0 (0000ms, 0274ms total)
T2EA8 000:284 JLINK_ReadMemU32(0xE000E004, 0x0001 Items, ...) -- CPU_ReadMem(4 bytes @ 0xE000E004) -- Data:  02 00 00 00  returns 0x01 (0001ms, 0275ms total)
T2EA8 000:285 JLINK_ReadMemU32(0xE000E004, 0x0001 Items, ...) -- CPU_ReadMem(4 bytes @ 0xE000E004) -- Data:  02 00 00 00  returns 0x01 (0002ms, 0277ms total)
T2EA8 000:287 JLINK_WriteMem(0xE0001000, 0x001C Bytes, ...) -- Data:  01 00 00 00 00 00 00 00 00 00 00 00 00 00 00 00 ... -- CPU_WriteMem(28 bytes @ 0xE0001000)  returns 0x1C (0002ms, 0279ms total)
T2EA8 000:289 JLINK_ReadMem (0xE0001000, 0x001C Bytes, ...) -- CPU_ReadMem(28 bytes @ 0xE0001000) -- Data:  01 00 00 40 00 00 00 00 00 00 00 00 00 00 00 00 ...  returns 0x00 (0002ms, 0281ms total)
T2EA8 000:291 JLINK_ReadReg(R15)  returns 0x0800F7C8 (0000ms, 0281ms total)
T2EA8 000:291 JLINK_ReadReg(XPSR)  returns 0x01000000 (0001ms, 0282ms total)
T2EA8 000:470 JLINK_SetResetType(JLINKARM_RESET_TYPE_NORMAL)  returns JLINKARM_RESET_TYPE_NORMAL (0000ms, 0282ms total)
T2EA8 000:470 JLINK_Reset() -- CPU_WriteMem(4 bytes @ 0xE000EDF0) -- CPU_WriteMem(4 bytes @ 0xE000EDFC) >0x35 TIF> -- CPU_WriteMem(4 bytes @ 0xE000ED0C) -- CPU_ReadMem(4 bytes @ 0xE000EDF0) -- CPU_ReadMem(4 bytes @ 0xE000EDF0) -- CPU_WriteMem(4 bytes @ 0xE000EDF0) -- CPU_WriteMem(4 bytes @ 0xE000EDFC) -- CPU is running -- CPU_ReadMem(4 bytes @ 0xE000EDF0) -- CPU_WriteMem(4 bytes @ 0xE0002000) (0024ms, 0306ms total)
T2EA8 000:494 JLINK_ReadReg(R15)  returns 0x0800F7C8 (0000ms, 0306ms total)
T2EA8 000:494 JLINK_ReadReg(XPSR)  returns 0x01000000 (0000ms, 0306ms total)
T2EA8 000:495 JLINK_ReadMem (0x0800F7C8, 0x0038 Bytes, ...) -- CPU_ReadMem(56 bytes @ 0x0800F7C8) -- Data:  06 48 80 47 06 48 00 47 FE E7 FE E7 FE E7 FE E7 ...  returns 0x00 (0002ms, 0308ms total)
T2EA8 000:497 JLINK_ReadMem (0x0800F800, 0x0004 Bytes, ...) -- CPU_ReadMem(4 bytes @ 0x0800F800) -- Data:  10 BD 10 B5  returns 0x00 (0001ms, 0309ms total)
T2EA8 000:783 JLINK_ReadMem (0x40023800, 0x0008 Bytes, ...) -- CPU_ReadMem(8 bytes @ 0x40023800) -- Data:  83 87 00 00 10 30 00 24  returns 0x00 (0001ms, 0310ms total)
T2EA8 000:785 JLINK_ReadMem (0x40023808, 0x0004 Bytes, ...) -- CPU_ReadMem(4 bytes @ 0x40023808) -- Data:  00 00 00 00  returns 0x00 (0001ms, 0311ms total)
T2EA8 000:786 JLINK_ReadMem (0x40023810, 0x0008 Bytes, ...) -- CPU_ReadMem(8 bytes @ 0x40023810) -- Data:  00 00 00 00 00 00 00 00  returns 0x00 (0001ms, 0312ms total)
T2EA8 000:787 JLINK_ReadMem (0x40023818, 0x0004 Bytes, ...) -- CPU_ReadMem(4 bytes @ 0x40023818) -- Data:  00 00 00 00  returns 0x00 (0001ms, 0313ms total)
T2EA8 000:788 JLINK_ReadMem (0x40023820, 0x0004 Bytes, ...) -- CPU_ReadMem(4 bytes @ 0x40023820) -- Data:  00 00 00 00  returns 0x00 (0001ms, 0314ms total)
T2EA8 000:789 JLINK_ReadMem (0x40023824, 0x0004 Bytes, ...) -- CPU_ReadMem(4 bytes @ 0x40023824) -- Data:  00 00 00 00  returns 0x00 (0001ms, 0315ms total)
T2EA8 000:790 JLINK_ReadMem (0x40023830, 0x0008 Bytes, ...) -- CPU_ReadMem(8 bytes @ 0x40023830) -- Data:  00 00 10 00 00 00 00 00  returns 0x00 (0001ms, 0316ms total)
T2EA8 000:791 JLINK_ReadMem (0x40023838, 0x0004 Bytes, ...) -- CPU_ReadMem(4 bytes @ 0x40023838) -- Data:  00 00 00 00  returns 0x00 (0001ms, 0317ms total)
T2EA8 000:792 JLINK_ReadMem (0x40023840, 0x0004 Bytes, ...) -- CPU_ReadMem(4 bytes @ 0x40023840) -- Data:  00 00 00 00  returns 0x00 (0001ms, 0318ms total)
T2EA8 000:793 JLINK_ReadMem (0x40023844, 0x0004 Bytes, ...) -- CPU_ReadMem(4 bytes @ 0x40023844) -- Data:  00 00 00 00  returns 0x00 (0001ms, 0319ms total)
T2EA8 000:794 JLINK_ReadMem (0x40023850, 0x0008 Bytes, ...) -- CPU_ReadMem(8 bytes @ 0x40023850) -- Data:  FF 91 67 7E F1 00 00 00  returns 0x00 (0001ms, 0320ms total)
T2EA8 000:795 JLINK_ReadMem (0x40023858, 0x0004 Bytes, ...) -- CPU_ReadMem(4 bytes @ 0x40023858) -- Data:  01 00 00 00  returns 0x00 (0001ms, 0321ms total)
T2EA8 000:796 JLINK_ReadMem (0x40023860, 0x0004 Bytes, ...) -- CPU_ReadMem(4 bytes @ 0x40023860) -- Data:  FF C9 FE 36  returns 0x00 (0001ms, 0322ms total)
T2EA8 000:797 JLINK_ReadMem (0x40023864, 0x0004 Bytes, ...) -- CPU_ReadMem(4 bytes @ 0x40023864) -- Data:  33 5F 07 00  returns 0x00 (0001ms, 0323ms total)
T2EA8 000:798 JLINK_ReadMem (0x40023870, 0x0004 Bytes, ...) -- CPU_ReadMem(4 bytes @ 0x40023870) -- Data:  00 00 00 00  returns 0x00 (0001ms, 0324ms total)
T2EA8 000:799 JLINK_ReadMem (0x40023874, 0x0004 Bytes, ...) -- CPU_ReadMem(4 bytes @ 0x40023874) -- Data:  00 00 00 1E  returns 0x00 (0001ms, 0325ms total)
T2EA8 000:800 JLINK_ReadMem (0x40023880, 0x0004 Bytes, ...) -- CPU_ReadMem(4 bytes @ 0x40023880) -- Data:  00 00 00 00  returns 0x00 (0001ms, 0326ms total)
T2EA8 000:801 JLINK_ReadMem (0x40023884, 0x0004 Bytes, ...) -- CPU_ReadMem(4 bytes @ 0x40023884) -- Data:  00 30 00 20  returns 0x00 (0001ms, 0327ms total)
T2EA8 000:892 JLINK_ReadMem (0x40004400, 0x0018 Bytes, ...) -- CPU_ReadMem(24 bytes @ 0x40004400) -- Data:  00 00 00 00 00 00 00 00 00 00 00 00 00 00 00 00 ...  returns 0x00 (0002ms, 0329ms total)
T2EA8 000:894 JLINK_ReadMem (0x40004418, 0x0004 Bytes, ...) -- CPU_ReadMem(4 bytes @ 0x40004418) -- Data:  00 00 00 00  returns 0x00 (0001ms, 0330ms total)
T2EA8 001:952 JLINK_ReadMem (0x00000000, 0x004A Bytes, ...) -- CPU_ReadMem(74 bytes @ 0x00000000) -- Data:  58 3E 00 20 C9 F7 00 08 B5 01 00 08 D3 F7 00 08 ...  returns 0x00 (0003ms, 0333ms total)
T2EA8 001:956 JLINK_ReadMem (0x20000044, 0x0004 Bytes, ...) -- CPU_ReadMem(4 bytes @ 0x20000044) -- Data:  D0 B1 41 3F  returns 0x00 (0001ms, 0334ms total)
T2EA8 001:973 JLINK_ReadMem (0x00000000, 0x00A1 Bytes, ...) -- CPU_ReadMem(161 bytes @ 0x00000000) -- Data:  58 3E 00 20 C9 F7 00 08 B5 01 00 08 D3 F7 00 08 ...  returns 0x00 (0003ms, 0337ms total)
T2EA8 003:783 JLINK_ReadMem (0x20000520, 0x0004 Bytes, ...) -- CPU_ReadMem(4 bytes @ 0x20000520) -- Data:  02 00 00 00  returns 0x00 (0002ms, 0339ms total)
T2EA8 003:797 JLINK_ReadMem (0x20000698, 0x0004 Bytes, ...) -- CPU_ReadMem(4 bytes @ 0x20000698) -- Data:  7A 39 41 40  returns 0x00 (0001ms, 0340ms total)
T2EA8 003:805 JLINK_ReadMem (0x2000001C, 0x0004 Bytes, ...) -- CPU_ReadMem(4 bytes @ 0x2000001C) -- Data:  33 05 01 C0  returns 0x00 (0002ms, 0342ms total)
T2EA8 003:809 JLINK_ReadMem (0x20000020, 0x0004 Bytes, ...) -- CPU_ReadMem(4 bytes @ 0x20000020) -- Data:  73 5D 48 C1  returns 0x00 (0001ms, 0343ms total)
T2EA8 003:812 JLINK_ReadMem (0x20000024, 0x0004 Bytes, ...) -- CPU_ReadMem(4 bytes @ 0x20000024) -- Data:  23 5C AF 40  returns 0x00 (0001ms, 0344ms total)
T2EA8 003:820 JLINK_ReadMem (0x20000008, 0x0004 Bytes, ...) -- CPU_ReadMem(4 bytes @ 0x20000008) -- Data:  45 10 0B 42  returns 0x00 (0002ms, 0346ms total)
T2EA8 003:832 JLINK_ReadMem (0x200004A8, 0x0001 Bytes, ...) -- CPU_ReadMem(1 bytes @ 0x200004A8) -- Data:  00  returns 0x00 (0001ms, 0347ms total)
T2EA8 003:835 JLINK_ReadMem (0x20000470, 0x0001 Bytes, ...) -- CPU_ReadMem(1 bytes @ 0x20000470) -- Data:  01  returns 0x00 (0001ms, 0348ms total)
T2EA8 003:838 JLINK_ReadMem (0x200005F8, 0x0002 Bytes, ...) -- CPU_ReadMem(2 bytes @ 0x200005F8) -- Data:  00 00  returns 0x00 (0001ms, 0349ms total)
T2EA8 003:842 JLINK_ReadMem (0x200004EC, 0x0004 Bytes, ...) -- CPU_ReadMem(4 bytes @ 0x200004EC) -- Data:  00 00 00 00  returns 0x00 (0002ms, 0351ms total)
T2EA8 003:847 JLINK_ReadMem (0x200004E4, 0x0004 Bytes, ...) -- CPU_ReadMem(4 bytes @ 0x200004E4) -- Data:  00 00 00 00  returns 0x00 (0001ms, 0352ms total)
T2EA8 003:850 JLINK_ReadMem (0x200004F0, 0x0004 Bytes, ...) -- CPU_ReadMem(4 bytes @ 0x200004F0) -- Data:  00 00 00 00  returns 0x00 (0001ms, 0353ms total)
T2EA8 003:860 JLINK_ReadMem (0x200004F4, 0x0004 Bytes, ...) -- CPU_ReadMem(4 bytes @ 0x200004F4) -- Data:  06 10 0B 44  returns 0x00 (0001ms, 0354ms total)
T2EA8 003:873 JLINK_ReadMem (0x200004D8, 0x0004 Bytes, ...) -- CPU_ReadMem(4 bytes @ 0x200004D8) -- Data:  00 00 00 00  returns 0x00 (0002ms, 0356ms total)
T2EA8 003:877 JLINK_ReadMem (0x200004E8, 0x0004 Bytes, ...) -- CPU_ReadMem(4 bytes @ 0x200004E8) -- Data:  50 00 C8 41  returns 0x00 (0001ms, 0357ms total)
T2EA8 003:902 JLINK_ReadMem (0x200004E0, 0x0004 Bytes, ...) -- CPU_ReadMem(4 bytes @ 0x200004E0) -- Data:  00 00 00 00  returns 0x00 (0001ms, 0358ms total)
T2B68 004:120 JLINK_SetBPEx(Addr = 0x080001A0, Type = 0xFFFFFFF2)  returns 0x00000001 (0000ms, 0358ms total)
T2B68 004:120 JLINK_SetBPEx(Addr = 0x080057A6, Type = 0xFFFFFFF2)  returns 0x00000002 (0000ms, 0358ms total)
T2B68 004:120 JLINK_SetBPEx(Addr = 0x08004932, Type = 0xFFFFFFF2)  returns 0x00000003 (0000ms, 0358ms total)
T2B68 004:120 JLINK_Go() -- CPU_WriteMem(4 bytes @ 0xE0002008) -- CPU_WriteMem(4 bytes @ 0xE000200C) -- CPU_WriteMem(4 bytes @ 0xE0002010) -- CPU_WriteMem(4 bytes @ 0xE0002014) -- CPU_WriteMem(4 bytes @ 0xE0002018) -- CPU_WriteMem(4 bytes @ 0xE000201C) (0008ms, 0366ms total)
T2B68 004:229 JLINK_IsHalted()  returns TRUE (0004ms, 0370ms total)
T2B68 004:233 JLINK_Halt()  returns 0x00 (0000ms, 0366ms total)
T2B68 004:233 JLINK_IsHalted()  returns TRUE (0000ms, 0366ms total)
T2B68 004:233 JLINK_IsHalted()  returns TRUE (0000ms, 0366ms total)
T2B68 004:233 JLINK_IsHalted()  returns TRUE (0000ms, 0366ms total)
T2B68 004:233 JLINK_ReadReg(R15)  returns 0x080001A0 (0001ms, 0367ms total)
T2B68 004:234 JLINK_ReadReg(XPSR)  returns 0x61000000 (0000ms, 0367ms total)
T2B68 004:234 JLINK_ClrBPEx(BPHandle = 0x00000001)  returns 0x00 (0000ms, 0367ms total)
T2B68 004:234 JLINK_ClrBPEx(BPHandle = 0x00000002)  returns 0x00 (0000ms, 0367ms total)
T2B68 004:234 JLINK_ClrBPEx(BPHandle = 0x00000003)  returns 0x00 (0000ms, 0367ms total)
T2B68 004:234 JLINK_ReadMemU32(0xE000ED30, 0x0001 Items, ...) -- CPU_ReadMem(4 bytes @ 0xE000ED30) -- Data:  03 00 00 00  returns 0x01 (0001ms, 0368ms total)
T2B68 004:235 JLINK_ReadMemU32(0xE0001028, 0x0001 Items, ...) -- CPU_ReadMem(4 bytes @ 0xE0001028) -- Data:  00 00 00 00  returns 0x01 (0001ms, 0369ms total)
T2B68 004:236 JLINK_ReadMemU32(0xE0001038, 0x0001 Items, ...) -- CPU_ReadMem(4 bytes @ 0xE0001038) -- Data:  00 02 00 00  returns 0x01 (0001ms, 0370ms total)
T2B68 004:237 JLINK_ReadMemU32(0xE0001048, 0x0001 Items, ...) -- CPU_ReadMem(4 bytes @ 0xE0001048) -- Data:  00 00 00 00  returns 0x01 (0002ms, 0372ms total)
T2B68 004:239 JLINK_ReadMemU32(0xE0001058, 0x0001 Items, ...) -- CPU_ReadMem(4 bytes @ 0xE0001058) -- Data:  00 00 00 00  returns 0x01 (0001ms, 0373ms total)
T2B68 004:241 JLINK_ReadReg(R0)  returns 0x080001A1 (0000ms, 0373ms total)
T2B68 004:241 JLINK_ReadReg(R1)  returns 0x20003E58 (0000ms, 0373ms total)
T2B68 004:241 JLINK_ReadReg(R2)  returns 0x00000000 (0000ms, 0373ms total)
T2B68 004:241 JLINK_ReadReg(R3)  returns 0x08013E41 (0000ms, 0373ms total)
T2B68 004:241 JLINK_ReadReg(R4)  returns 0x080140F0 (0000ms, 0373ms total)
T2B68 004:241 JLINK_ReadReg(R5)  returns 0x080140F0 (0000ms, 0373ms total)
T2B68 004:241 JLINK_ReadReg(R6)  returns 0x00000000 (0000ms, 0373ms total)
T2B68 004:241 JLINK_ReadReg(R7)  returns 0x00000000 (0000ms, 0373ms total)
T2B68 004:241 JLINK_ReadReg(R8)  returns 0x00000000 (0000ms, 0373ms total)
T2B68 004:241 JLINK_ReadReg(R9)  returns 0x00000000 (0000ms, 0373ms total)
T2B68 004:241 JLINK_ReadReg(R10)  returns 0x00000000 (0000ms, 0373ms total)
T2B68 004:241 JLINK_ReadReg(R11)  returns 0x00000000 (0000ms, 0373ms total)
T2B68 004:241 JLINK_ReadReg(R12)  returns 0x00000000 (0000ms, 0373ms total)
T2B68 004:241 JLINK_ReadReg(R13)  returns 0x20003E58 (0000ms, 0373ms total)
T2B68 004:241 JLINK_ReadReg(R14)  returns 0x08013831 (0001ms, 0374ms total)
T2B68 004:242 JLINK_ReadReg(R15)  returns 0x080001A0 (0000ms, 0374ms total)
T2B68 004:242 JLINK_ReadReg(XPSR)  returns 0x61000000 (0000ms, 0374ms total)
T2B68 004:242 JLINK_ReadReg(MSP)  returns 0x20003E58 (0000ms, 0374ms total)
T2B68 004:242 JLINK_ReadReg(PSP)  returns 0x00000000 (0000ms, 0374ms total)
T2B68 004:242 JLINK_ReadReg(CFBP)  returns 0x00000000 (0000ms, 0374ms total)
T2B68 004:242 JLINK_ReadReg(FPSCR)  returns 0x00000000 (0006ms, 0380ms total)
T2B68 004:248 JLINK_ReadReg(FPS0)  returns 0x00000000 (0000ms, 0380ms total)
T2B68 004:248 JLINK_ReadReg(FPS1)  returns 0x00000000 (0000ms, 0380ms total)
T2B68 004:248 JLINK_ReadReg(FPS2)  returns 0x00000000 (0000ms, 0380ms total)
T2B68 004:248 JLINK_ReadReg(FPS3)  returns 0x00000000 (0000ms, 0380ms total)
T2B68 004:248 JLINK_ReadReg(FPS4)  returns 0x00000000 (0000ms, 0380ms total)
T2B68 004:248 JLINK_ReadReg(FPS5)  returns 0x00000000 (0000ms, 0380ms total)
T2B68 004:248 JLINK_ReadReg(FPS6)  returns 0x00000000 (0001ms, 0381ms total)
T2B68 004:249 JLINK_ReadReg(FPS7)  returns 0x00000000 (0000ms, 0381ms total)
T2B68 004:249 JLINK_ReadReg(FPS8)  returns 0x00000000 (0000ms, 0381ms total)
T2B68 004:249 JLINK_ReadReg(FPS9)  returns 0x00000000 (0000ms, 0381ms total)
T2B68 004:249 JLINK_ReadReg(FPS10)  returns 0x00000000 (0000ms, 0381ms total)
T2B68 004:249 JLINK_ReadReg(FPS11)  returns 0x00000000 (0000ms, 0381ms total)
T2B68 004:249 JLINK_ReadReg(FPS12)  returns 0x00000000 (0000ms, 0381ms total)
T2B68 004:249 JLINK_ReadReg(FPS13)  returns 0x00000000 (0000ms, 0381ms total)
T2B68 004:249 JLINK_ReadReg(FPS14)  returns 0x00000000 (0000ms, 0381ms total)
T2B68 004:249 JLINK_ReadReg(FPS15)  returns 0x00000000 (0000ms, 0381ms total)
T2B68 004:249 JLINK_ReadReg(FPS16)  returns 0x00000000 (0000ms, 0381ms total)
T2B68 004:249 JLINK_ReadReg(FPS17)  returns 0x00000000 (0000ms, 0381ms total)
T2B68 004:249 JLINK_ReadReg(FPS18)  returns 0x00000000 (0000ms, 0381ms total)
T2B68 004:249 JLINK_ReadReg(FPS19)  returns 0x00000000 (0000ms, 0381ms total)
T2B68 004:249 JLINK_ReadReg(FPS20)  returns 0x00000000 (0001ms, 0382ms total)
T2B68 004:250 JLINK_ReadReg(FPS21)  returns 0x00000000 (0000ms, 0382ms total)
T2B68 004:250 JLINK_ReadReg(FPS22)  returns 0x00000000 (0000ms, 0382ms total)
T2B68 004:250 JLINK_ReadReg(FPS23)  returns 0x00000000 (0000ms, 0382ms total)
T2B68 004:250 JLINK_ReadReg(FPS24)  returns 0x00000000 (0000ms, 0382ms total)
T2B68 004:250 JLINK_ReadReg(FPS25)  returns 0x00000000 (0000ms, 0382ms total)
T2B68 004:250 JLINK_ReadReg(FPS26)  returns 0x00000000 (0000ms, 0382ms total)
T2B68 004:250 JLINK_ReadReg(FPS27)  returns 0x00000000 (0000ms, 0382ms total)
T2B68 004:250 JLINK_ReadReg(FPS28)  returns 0x00000000 (0000ms, 0382ms total)
T2B68 004:250 JLINK_ReadReg(FPS29)  returns 0x00000000 (0000ms, 0382ms total)
T2B68 004:250 JLINK_ReadReg(FPS30)  returns 0x00000000 (0000ms, 0382ms total)
T2B68 004:250 JLINK_ReadReg(FPS31)  returns 0x00000000 (0000ms, 0382ms total)
T2EA8 004:253 JLINK_ReadMem (0x20000520, 0x0004 Bytes, ...) -- CPU_ReadMem(4 bytes @ 0x20000520) -- Data:  00 00 00 00  returns 0x00 (0001ms, 0383ms total)
T2EA8 004:254 JLINK_ReadMem (0x20000698, 0x0004 Bytes, ...) -- CPU_ReadMem(4 bytes @ 0x20000698) -- Data:  00 00 00 00  returns 0x00 (0002ms, 0385ms total)
T2EA8 004:257 JLINK_ReadMem (0x2000001C, 0x0004 Bytes, ...) -- CPU_ReadMem(4 bytes @ 0x2000001C) -- Data:  00 00 00 00  returns 0x00 (0001ms, 0386ms total)
T2EA8 004:258 JLINK_ReadMem (0x20000020, 0x0004 Bytes, ...) -- CPU_ReadMem(4 bytes @ 0x20000020) -- Data:  00 00 00 00  returns 0x00 (0001ms, 0387ms total)
T2EA8 004:259 JLINK_ReadMem (0x20000024, 0x0004 Bytes, ...) -- CPU_ReadMem(4 bytes @ 0x20000024) -- Data:  00 00 00 00  returns 0x00 (0001ms, 0388ms total)
T2EA8 004:260 JLINK_ReadMem (0x20000008, 0x0004 Bytes, ...) -- CPU_ReadMem(4 bytes @ 0x20000008) -- Data:  00 00 00 00  returns 0x00 (0001ms, 0389ms total)
T2EA8 004:261 JLINK_ReadMem (0x200004A8, 0x0001 Bytes, ...) -- CPU_ReadMem(1 bytes @ 0x200004A8) -- Data:  00  returns 0x00 (0001ms, 0390ms total)
T2EA8 004:262 JLINK_ReadMem (0x20000470, 0x0001 Bytes, ...) -- CPU_ReadMem(1 bytes @ 0x20000470) -- Data:  00  returns 0x00 (0001ms, 0391ms total)
T2EA8 004:263 JLINK_ReadMem (0x200005F8, 0x0002 Bytes, ...) -- CPU_ReadMem(2 bytes @ 0x200005F8) -- Data:  00 00  returns 0x00 (0001ms, 0392ms total)
T2EA8 004:264 JLINK_ReadMem (0x200004EC, 0x0004 Bytes, ...) -- CPU_ReadMem(4 bytes @ 0x200004EC) -- Data:  00 00 00 00  returns 0x00 (0001ms, 0393ms total)
T2EA8 004:265 JLINK_ReadMem (0x200004E4, 0x0004 Bytes, ...) -- CPU_ReadMem(4 bytes @ 0x200004E4) -- Data:  00 00 00 00  returns 0x00 (0001ms, 0394ms total)
T2EA8 004:266 JLINK_ReadMem (0x200004F0, 0x0004 Bytes, ...) -- CPU_ReadMem(4 bytes @ 0x200004F0) -- Data:  00 00 00 00  returns 0x00 (0001ms, 0395ms total)
T2EA8 004:268 JLINK_ReadMem (0x200004F4, 0x0004 Bytes, ...) -- CPU_ReadMem(4 bytes @ 0x200004F4) -- Data:  00 00 00 00  returns 0x00 (0001ms, 0396ms total)
T2EA8 004:270 JLINK_ReadMem (0x200004D8, 0x0004 Bytes, ...) -- CPU_ReadMem(4 bytes @ 0x200004D8) -- Data:  00 00 00 00  returns 0x00 (0001ms, 0397ms total)
T2EA8 004:271 JLINK_ReadMem (0x200004E8, 0x0004 Bytes, ...) -- CPU_ReadMem(4 bytes @ 0x200004E8) -- Data:  00 00 00 00  returns 0x00 (0001ms, 0398ms total)
T2EA8 004:283 JLINK_ReadMem (0x200004E0, 0x0004 Bytes, ...) -- CPU_ReadMem(4 bytes @ 0x200004E0) -- Data:  00 00 00 00  returns 0x00 (0002ms, 0400ms total)
T2EA8 004:287 JLINK_ReadMem (0x40004400, 0x0018 Bytes, ...) -- CPU_ReadMem(24 bytes @ 0x40004400) -- Data:  00 00 00 00 00 00 00 00 00 00 00 00 00 00 00 00 ...  returns 0x00 (0001ms, 0401ms total)
T2EA8 004:288 JLINK_ReadMem (0x40004418, 0x0004 Bytes, ...) -- CPU_ReadMem(4 bytes @ 0x40004418) -- Data:  00 00 00 00  returns 0x00 (0001ms, 0402ms total)
T2EA8 004:290 JLINK_ReadMem (0x40023800, 0x0008 Bytes, ...) -- CPU_ReadMem(8 bytes @ 0x40023800) -- Data:  83 87 03 03 19 54 40 07  returns 0x00 (0001ms, 0403ms total)
T2EA8 004:291 JLINK_ReadMem (0x40023808, 0x0004 Bytes, ...) -- CPU_ReadMem(4 bytes @ 0x40023808) -- Data:  0A 94 00 00  returns 0x00 (0001ms, 0404ms total)
T2EA8 004:292 JLINK_ReadMem (0x40023810, 0x0008 Bytes, ...) -- CPU_ReadMem(8 bytes @ 0x40023810) -- Data:  00 00 00 00 00 00 00 00  returns 0x00 (0001ms, 0405ms total)
T2EA8 004:293 JLINK_ReadMem (0x40023818, 0x0004 Bytes, ...) -- CPU_ReadMem(4 bytes @ 0x40023818) -- Data:  00 00 00 00  returns 0x00 (0001ms, 0406ms total)
T2EA8 004:294 JLINK_ReadMem (0x40023820, 0x0004 Bytes, ...) -- CPU_ReadMem(4 bytes @ 0x40023820) -- Data:  00 00 00 00  returns 0x00 (0001ms, 0407ms total)
T2EA8 004:295 JLINK_ReadMem (0x40023824, 0x0004 Bytes, ...) -- CPU_ReadMem(4 bytes @ 0x40023824) -- Data:  00 00 00 00  returns 0x00 (0001ms, 0408ms total)
T2EA8 004:296 JLINK_ReadMem (0x40023830, 0x0008 Bytes, ...) -- CPU_ReadMem(8 bytes @ 0x40023830) -- Data:  00 00 10 00 00 00 00 00  returns 0x00 (0001ms, 0409ms total)
T2EA8 004:297 JLINK_ReadMem (0x40023838, 0x0004 Bytes, ...) -- CPU_ReadMem(4 bytes @ 0x40023838) -- Data:  00 00 00 00  returns 0x00 (0001ms, 0410ms total)
T2EA8 004:298 JLINK_ReadMem (0x40023840, 0x0004 Bytes, ...) -- CPU_ReadMem(4 bytes @ 0x40023840) -- Data:  00 00 00 10  returns 0x00 (0001ms, 0411ms total)
T2EA8 004:299 JLINK_ReadMem (0x40023844, 0x0004 Bytes, ...) -- CPU_ReadMem(4 bytes @ 0x40023844) -- Data:  00 00 00 00  returns 0x00 (0001ms, 0412ms total)
T2EA8 004:300 JLINK_ReadMem (0x40023850, 0x0008 Bytes, ...) -- CPU_ReadMem(8 bytes @ 0x40023850) -- Data:  FF 91 67 7E F1 00 00 00  returns 0x00 (0001ms, 0413ms total)
T2EA8 004:301 JLINK_ReadMem (0x40023858, 0x0004 Bytes, ...) -- CPU_ReadMem(4 bytes @ 0x40023858) -- Data:  01 00 00 00  returns 0x00 (0001ms, 0414ms total)
T2EA8 004:302 JLINK_ReadMem (0x40023860, 0x0004 Bytes, ...) -- CPU_ReadMem(4 bytes @ 0x40023860) -- Data:  FF C9 FE 36  returns 0x00 (0001ms, 0415ms total)
T2EA8 004:303 JLINK_ReadMem (0x40023864, 0x0004 Bytes, ...) -- CPU_ReadMem(4 bytes @ 0x40023864) -- Data:  33 5F 07 00  returns 0x00 (0001ms, 0416ms total)
T2EA8 004:304 JLINK_ReadMem (0x40023870, 0x0004 Bytes, ...) -- CPU_ReadMem(4 bytes @ 0x40023870) -- Data:  00 00 00 00  returns 0x00 (0001ms, 0417ms total)
T2EA8 004:305 JLINK_ReadMem (0x40023874, 0x0004 Bytes, ...) -- CPU_ReadMem(4 bytes @ 0x40023874) -- Data:  00 00 00 1E  returns 0x00 (0001ms, 0418ms total)
T2EA8 004:306 JLINK_ReadMem (0x40023880, 0x0004 Bytes, ...) -- CPU_ReadMem(4 bytes @ 0x40023880) -- Data:  00 00 00 00  returns 0x00 (0001ms, 0419ms total)
T2EA8 004:307 JLINK_ReadMem (0x40023884, 0x0004 Bytes, ...) -- CPU_ReadMem(4 bytes @ 0x40023884) -- Data:  00 30 00 20  returns 0x00 (0001ms, 0420ms total)
T2EA8 004:316 JLINK_ReadMem (0x080001A0, 0x003C Bytes, ...) -- CPU_ReadMem(128 bytes @ 0x08000180) -- Updating DA cache (128 bytes @ 0x08000180) -- Read from DA cache (60 bytes @ 0x080001A0) -- Data:  00 F0 44 F9 02 49 08 70 01 E0 00 F0 E8 F8 FC E7 ...  returns 0x00 (0003ms, 0423ms total)
T2EA8 006:733 JLINK_ReadMem (0x08004730, 0x003C Bytes, ...) -- CPU_ReadMem(128 bytes @ 0x08004700) -- Updating DA cache (128 bytes @ 0x08004700) -- Read from DA cache (60 bytes @ 0x08004730) -- Data:  92 48 30 F8 14 00 2D F8 14 00 94 48 30 F9 14 00 ...  returns 0x00 (0003ms, 0426ms total)
T2B68 012:509 JLINK_SetBPEx(Addr = 0x080057A6, Type = 0xFFFFFFF2)  returns 0x00000004 (0001ms, 0427ms total)
T2B68 012:510 JLINK_SetBPEx(Addr = 0x08004932, Type = 0xFFFFFFF2)  returns 0x00000005 (0000ms, 0427ms total)
T2B68 012:510 JLINK_Go() -- CPU_WriteMem(4 bytes @ 0xE0002008) -- CPU_WriteMem(4 bytes @ 0xE000200C) -- CPU_WriteMem(4 bytes @ 0xE0002010) (0005ms, 0432ms total)
T2B68 012:615 JLINK_IsHalted()  returns FALSE (0001ms, 0433ms total)
T2B68 012:717 JLINK_IsHalted()  returns FALSE (0001ms, 0433ms total)
T2B68 012:819 JLINK_IsHalted()  returns FALSE (0001ms, 0433ms total)
T2B68 012:921 JLINK_IsHalted()  returns FALSE (0000ms, 0432ms total)
T2B68 013:022 JLINK_IsHalted()  returns FALSE (0001ms, 0433ms total)
T2B68 013:124 JLINK_ReadMemU32(0xE0001004, 0x0001 Items, ...) -- CPU is running -- CPU_ReadMem(4 bytes @ 0xE0001004) -- Data:  F7 13 1C 06  returns 0x01 (0001ms, 0433ms total)
T2EA8 013:126 JLINK_ReadMem (0x20000520, 0x0004 Bytes, ...) -- CPU is running -- CPU_ReadMem(4 bytes @ 0x20000520) -- Data:  00 00 00 00  returns 0x00 (0002ms, 0435ms total)
T2EA8 013:129 JLINK_ReadMem (0x20000698, 0x0004 Bytes, ...) -- CPU is running -- CPU_ReadMem(4 bytes @ 0x20000698) -- Data:  F5 F5 1C 3F  returns 0x00 (0001ms, 0436ms total)
T2EA8 013:131 JLINK_ReadMem (0x2000001C, 0x0004 Bytes, ...) -- CPU is running -- CPU_ReadMem(4 bytes @ 0x2000001C) -- Data:  51 D0 77 BC  returns 0x00 (0001ms, 0437ms total)
T2EA8 013:132 JLINK_ReadMem (0x20000020, 0x0004 Bytes, ...) -- CPU is running -- CPU_ReadMem(4 bytes @ 0x20000020) -- Data:  B2 97 4B BD  returns 0x00 (0001ms, 0438ms total)
T2EA8 013:133 JLINK_ReadMem (0x20000024, 0x0004 Bytes, ...) -- CPU is running -- CPU_ReadMem(4 bytes @ 0x20000024) -- Data:  95 83 D6 3C  returns 0x00 (0001ms, 0439ms total)
T2EA8 013:134 JLINK_ReadMem (0x20000008, 0x0004 Bytes, ...) -- CPU is running -- CPU_ReadMem(4 bytes @ 0x20000008) -- Data:  00 00 00 00  returns 0x00 (0001ms, 0440ms total)
T2EA8 013:135 JLINK_ReadMem (0x200004A8, 0x0001 Bytes, ...) -- CPU is running -- CPU_ReadMem(1 bytes @ 0x200004A8) -- Data:  00  returns 0x00 (0002ms, 0442ms total)
T2EA8 013:137 JLINK_ReadMem (0x20000470, 0x0001 Bytes, ...) -- CPU is running -- CPU_ReadMem(1 bytes @ 0x20000470) -- Data:  01  returns 0x00 (0001ms, 0443ms total)
T2EA8 013:138 JLINK_ReadMem (0x200005F8, 0x0002 Bytes, ...) -- CPU is running -- CPU_ReadMem(2 bytes @ 0x200005F8) -- Data:  00 00  returns 0x00 (0001ms, 0444ms total)
T2EA8 013:139 JLINK_ReadMem (0x200004EC, 0x0004 Bytes, ...) -- CPU is running -- CPU_ReadMem(4 bytes @ 0x200004EC) -- Data:  00 00 00 00  returns 0x00 (0001ms, 0445ms total)
T2EA8 013:140 JLINK_ReadMem (0x200004E4, 0x0004 Bytes, ...) -- CPU is running -- CPU_ReadMem(4 bytes @ 0x200004E4) -- Data:  00 00 00 00  returns 0x00 (0001ms, 0446ms total)
T2EA8 013:141 JLINK_ReadMem (0x200004F0, 0x0004 Bytes, ...) -- CPU is running -- CPU_ReadMem(4 bytes @ 0x200004F0) -- Data:  00 00 00 00  returns 0x00 (0001ms, 0447ms total)
T2EA8 013:143 JLINK_ReadMem (0x200004F4, 0x0004 Bytes, ...) -- CPU is running -- CPU_ReadMem(4 bytes @ 0x200004F4) -- Data:  08 D4 75 44  returns 0x00 (0001ms, 0448ms total)
T2EA8 013:145 JLINK_ReadMem (0x200004D8, 0x0004 Bytes, ...) -- CPU is running -- CPU_ReadMem(4 bytes @ 0x200004D8) -- Data:  00 00 00 00  returns 0x00 (0001ms, 0449ms total)
T2EA8 013:146 JLINK_ReadMem (0x200004E8, 0x0004 Bytes, ...) -- CPU is running -- CPU_ReadMem(4 bytes @ 0x200004E8) -- Data:  2A E2 80 43  returns 0x00 (0001ms, 0450ms total)
T2EA8 013:147 JLINK_ReadMem (0x200005F8, 0x0002 Bytes, ...) -- CPU is running -- CPU_ReadMem(2 bytes @ 0x200005F8) -- Data:  00 00  returns 0x00 (0001ms, 0451ms total)
T2EA8 013:148 JLINK_ReadMem (0x200004EC, 0x0004 Bytes, ...) -- CPU is running -- CPU_ReadMem(4 bytes @ 0x200004EC) -- Data:  00 00 00 00  returns 0x00 (0001ms, 0452ms total)
T2EA8 013:149 JLINK_ReadMem (0x20000024, 0x0004 Bytes, ...) -- CPU is running -- CPU_ReadMem(4 bytes @ 0x20000024) -- Data:  F1 DF D5 3D  returns 0x00 (0001ms, 0453ms total)
T2EA8 013:151 JLINK_ReadMem (0x200004D8, 0x0004 Bytes, ...) -- CPU is running -- CPU_ReadMem(4 bytes @ 0x200004D8) -- Data:  00 00 00 00  returns 0x00 (0001ms, 0454ms total)
T2EA8 013:152 JLINK_ReadMem (0x200004E0, 0x0004 Bytes, ...) -- CPU is running -- CPU_ReadMem(4 bytes @ 0x200004E0) -- Data:  00 00 00 00  returns 0x00 (0001ms, 0455ms total)
T2EA8 013:154 JLINK_ReadMem (0x200005F8, 0x0002 Bytes, ...) -- CPU is running -- CPU_ReadMem(2 bytes @ 0x200005F8) -- Data:  00 00  returns 0x00 (0001ms, 0456ms total)
T2EA8 013:162 JLINK_ReadMem (0x40004400, 0x0018 Bytes, ...) -- CPU is running -- CPU_ReadMem(24 bytes @ 0x40004400) -- Data:  00 00 00 00 00 00 00 00 6C 01 00 00 AC 20 00 00 ...  returns 0x00 (0001ms, 0457ms total)
T2EA8 013:163 JLINK_ReadMem (0x40004418, 0x0004 Bytes, ...) -- CPU is running -- CPU_ReadMem(4 bytes @ 0x40004418) -- Data:  00 00 00 00  returns 0x00 (0001ms, 0458ms total)
T2EA8 013:181 JLINK_ReadMem (0x40023800, 0x0008 Bytes, ...) -- CPU is running -- CPU_ReadMem(8 bytes @ 0x40023800) -- Data:  83 87 03 03 19 54 40 07  returns 0x00 (0001ms, 0459ms total)
T2EA8 013:182 JLINK_ReadMem (0x40023808, 0x0004 Bytes, ...) -- CPU is running -- CPU_ReadMem(4 bytes @ 0x40023808) -- Data:  0A 94 00 00  returns 0x00 (0002ms, 0461ms total)
T2EA8 013:184 JLINK_ReadMem (0x40023810, 0x0008 Bytes, ...) -- CPU is running -- CPU_ReadMem(8 bytes @ 0x40023810) -- Data:  00 00 00 00 00 00 00 00  returns 0x00 (0001ms, 0462ms total)
T2EA8 013:185 JLINK_ReadMem (0x40023818, 0x0004 Bytes, ...) -- CPU is running -- CPU_ReadMem(4 bytes @ 0x40023818) -- Data:  00 00 00 00  returns 0x00 (0001ms, 0463ms total)
T2EA8 013:186 JLINK_ReadMem (0x40023820, 0x0004 Bytes, ...) -- CPU is running -- CPU_ReadMem(4 bytes @ 0x40023820) -- Data:  00 00 00 00  returns 0x00 (0001ms, 0464ms total)
T2EA8 013:187 JLINK_ReadMem (0x40023824, 0x0004 Bytes, ...) -- CPU is running -- CPU_ReadMem(4 bytes @ 0x40023824) -- Data:  00 00 00 00  returns 0x00 (0001ms, 0465ms total)
T2EA8 013:188 JLINK_ReadMem (0x40023830, 0x0008 Bytes, ...) -- CPU is running -- CPU_ReadMem(8 bytes @ 0x40023830) -- Data:  5F 00 10 00 80 00 00 00  returns 0x00 (0001ms, 0466ms total)
T2EA8 013:189 JLINK_ReadMem (0x40023838, 0x0004 Bytes, ...) -- CPU is running -- CPU_ReadMem(4 bytes @ 0x40023838) -- Data:  00 00 00 00  returns 0x00 (0001ms, 0467ms total)
T2EA8 013:190 JLINK_ReadMem (0x40023840, 0x0004 Bytes, ...) -- CPU is running -- CPU_ReadMem(4 bytes @ 0x40023840) -- Data:  0E 00 12 10  returns 0x00 (0001ms, 0468ms total)
T2EA8 013:191 JLINK_ReadMem (0x40023844, 0x0004 Bytes, ...) -- CPU is running -- CPU_ReadMem(4 bytes @ 0x40023844) -- Data:  03 10 00 00  returns 0x00 (0001ms, 0469ms total)
T2EA8 013:192 JLINK_ReadMem (0x40023850, 0x0008 Bytes, ...) -- CPU is running -- CPU_ReadMem(8 bytes @ 0x40023850) -- Data:  FF 91 67 7E F1 00 00 00  returns 0x00 (0001ms, 0470ms total)
T2EA8 013:193 JLINK_ReadMem (0x40023858, 0x0004 Bytes, ...) -- CPU is running -- CPU_ReadMem(4 bytes @ 0x40023858) -- Data:  01 00 00 00  returns 0x00 (0001ms, 0471ms total)
T2EA8 013:194 JLINK_ReadMem (0x40023860, 0x0004 Bytes, ...) -- CPU is running -- CPU_ReadMem(4 bytes @ 0x40023860) -- Data:  FF C9 FE 36  returns 0x00 (0001ms, 0472ms total)
T2EA8 013:195 JLINK_ReadMem (0x40023864, 0x0004 Bytes, ...) -- CPU is running -- CPU_ReadMem(4 bytes @ 0x40023864) -- Data:  33 5F 07 00  returns 0x00 (0001ms, 0473ms total)
T2EA8 013:196 JLINK_ReadMem (0x40023870, 0x0004 Bytes, ...) -- CPU is running -- CPU_ReadMem(4 bytes @ 0x40023870) -- Data:  00 00 00 00  returns 0x00 (0001ms, 0474ms total)
T2EA8 013:197 JLINK_ReadMem (0x40023874, 0x0004 Bytes, ...) -- CPU is running -- CPU_ReadMem(4 bytes @ 0x40023874) -- Data:  00 00 00 1E  returns 0x00 (0001ms, 0475ms total)
T2EA8 013:198 JLINK_ReadMem (0x40023880, 0x0004 Bytes, ...) -- CPU is running -- CPU_ReadMem(4 bytes @ 0x40023880) -- Data:  00 00 00 00  returns 0x00 (0001ms, 0476ms total)
T2EA8 013:199 JLINK_ReadMem (0x40023884, 0x0004 Bytes, ...) -- CPU is running -- CPU_ReadMem(4 bytes @ 0x40023884) -- Data:  00 30 00 20  returns 0x00 (0001ms, 0477ms total)
T2B68 013:203 JLINK_IsHalted()  returns FALSE (0001ms, 0478ms total)
T2B68 013:305 JLINK_IsHalted()  returns FALSE (0001ms, 0478ms total)
T2B68 013:407 JLINK_IsHalted()  returns FALSE (0000ms, 0477ms total)
T2B68 013:508 JLINK_IsHalted()  returns FALSE (0000ms, 0477ms total)
T2B68 013:609 JLINK_IsHalted()  returns FALSE (0001ms, 0478ms total)
T2B68 013:711 JLINK_ReadMemU32(0xE0001004, 0x0001 Items, ...) -- CPU is running -- CPU_ReadMem(4 bytes @ 0xE0001004) -- Data:  2A 68 FC 0B  returns 0x01 (0001ms, 0478ms total)
T2EA8 013:712 JLINK_ReadMem (0x20000520, 0x0004 Bytes, ...) -- CPU is running -- CPU_ReadMem(4 bytes @ 0x20000520) -- Data:  00 00 00 00  returns 0x00 (0001ms, 0479ms total)
T2EA8 013:713 JLINK_ReadMem (0x20000698, 0x0004 Bytes, ...) -- CPU is running -- CPU_ReadMem(4 bytes @ 0x20000698) -- Data:  07 7D 99 3F  returns 0x00 (0001ms, 0480ms total)
T2EA8 013:715 JLINK_ReadMem (0x2000001C, 0x0004 Bytes, ...) -- CPU is running -- CPU_ReadMem(4 bytes @ 0x2000001C) -- Data:  6B 33 64 BF  returns 0x00 (0002ms, 0482ms total)
T2EA8 013:717 JLINK_ReadMem (0x20000020, 0x0004 Bytes, ...) -- CPU is running -- CPU_ReadMem(4 bytes @ 0x20000020) -- Data:  7E DC 91 C0  returns 0x00 (0001ms, 0483ms total)
T2EA8 013:719 JLINK_ReadMem (0x20000024, 0x0004 Bytes, ...) -- CPU is running -- CPU_ReadMem(4 bytes @ 0x20000024) -- Data:  AE 6B 20 40  returns 0x00 (0001ms, 0484ms total)
T2EA8 013:721 JLINK_ReadMem (0x20000008, 0x0004 Bytes, ...) -- CPU is running -- CPU_ReadMem(4 bytes @ 0x20000008) -- Data:  5E 10 0B 42  returns 0x00 (0001ms, 0485ms total)
T2EA8 013:723 JLINK_ReadMem (0x200004A8, 0x0001 Bytes, ...) -- CPU is running -- CPU_ReadMem(1 bytes @ 0x200004A8) -- Data:  00  returns 0x00 (0001ms, 0486ms total)
T2EA8 013:724 JLINK_ReadMem (0x20000470, 0x0001 Bytes, ...) -- CPU is running -- CPU_ReadMem(1 bytes @ 0x20000470) -- Data:  01  returns 0x00 (0001ms, 0487ms total)
T2EA8 013:725 JLINK_ReadMem (0x200005F8, 0x0002 Bytes, ...) -- CPU is running -- CPU_ReadMem(2 bytes @ 0x200005F8) -- Data:  00 00  returns 0x00 (0001ms, 0488ms total)
T2EA8 013:726 JLINK_ReadMem (0x200004EC, 0x0004 Bytes, ...) -- CPU is running -- CPU_ReadMem(4 bytes @ 0x200004EC) -- Data:  00 00 00 00  returns 0x00 (0001ms, 0489ms total)
T2EA8 013:727 JLINK_ReadMem (0x200004E4, 0x0004 Bytes, ...) -- CPU is running -- CPU_ReadMem(4 bytes @ 0x200004E4) -- Data:  00 00 00 00  returns 0x00 (0001ms, 0490ms total)
T2EA8 013:728 JLINK_ReadMem (0x200004F0, 0x0004 Bytes, ...) -- CPU is running -- CPU_ReadMem(4 bytes @ 0x200004F0) -- Data:  00 00 00 00  returns 0x00 (0001ms, 0491ms total)
T2EA8 013:730 JLINK_ReadMem (0x200004F4, 0x0004 Bytes, ...) -- CPU is running -- CPU_ReadMem(4 bytes @ 0x200004F4) -- Data:  08 10 0B 44  returns 0x00 (0001ms, 0492ms total)
T2EA8 013:732 JLINK_ReadMem (0x200004D8, 0x0004 Bytes, ...) -- CPU is running -- CPU_ReadMem(4 bytes @ 0x200004D8) -- Data:  00 00 00 00  returns 0x00 (0001ms, 0493ms total)
T2EA8 013:734 JLINK_ReadMem (0x200004E8, 0x0004 Bytes, ...) -- CPU is running -- CPU_ReadMem(4 bytes @ 0x200004E8) -- Data:  70 00 C8 41  returns 0x00 (0000ms, 0493ms total)
T2EA8 013:735 JLINK_ReadMem (0x200005F8, 0x0002 Bytes, ...) -- CPU is running -- CPU_ReadMem(2 bytes @ 0x200005F8) -- Data:  00 00  returns 0x00 (0001ms, 0494ms total)
T2EA8 013:736 JLINK_ReadMem (0x200004EC, 0x0004 Bytes, ...) -- CPU is running -- CPU_ReadMem(4 bytes @ 0x200004EC) -- Data:  00 00 00 00  returns 0x00 (0001ms, 0495ms total)
T2EA8 013:737 JLINK_ReadMem (0x20000024, 0x0004 Bytes, ...) -- CPU is running -- CPU_ReadMem(4 bytes @ 0x20000024) -- Data:  BA E4 24 40  returns 0x00 (0001ms, 0496ms total)
T2EA8 013:740 JLINK_ReadMem (0x200004D8, 0x0004 Bytes, ...) -- CPU is running -- CPU_ReadMem(4 bytes @ 0x200004D8) -- Data:  00 00 00 00  returns 0x00 (0001ms, 0497ms total)
T2EA8 013:741 JLINK_ReadMem (0x200004E0, 0x0004 Bytes, ...) -- CPU is running -- CPU_ReadMem(4 bytes @ 0x200004E0) -- Data:  00 00 00 00  returns 0x00 (0001ms, 0498ms total)
T2EA8 013:743 JLINK_ReadMem (0x200005F8, 0x0002 Bytes, ...) -- CPU is running -- CPU_ReadMem(2 bytes @ 0x200005F8) -- Data:  00 00  returns 0x00 (0001ms, 0499ms total)
T2EA8 013:757 JLINK_ReadMem (0x40004400, 0x0018 Bytes, ...) -- CPU is running -- CPU_ReadMem(24 bytes @ 0x40004400) -- Data:  C0 00 00 00 00 00 00 00 6C 01 00 00 2C 20 00 00 ...  returns 0x00 (0001ms, 0500ms total)
T2EA8 013:758 JLINK_ReadMem (0x40004418, 0x0004 Bytes, ...) -- CPU is running -- CPU_ReadMem(4 bytes @ 0x40004418) -- Data:  00 00 00 00  returns 0x00 (0001ms, 0501ms total)
T2EA8 013:776 JLINK_ReadMem (0x40023800, 0x0008 Bytes, ...) -- CPU is running -- CPU_ReadMem(8 bytes @ 0x40023800) -- Data:  83 87 03 03 19 54 40 07  returns 0x00 (0002ms, 0503ms total)
T2EA8 013:778 JLINK_ReadMem (0x40023808, 0x0004 Bytes, ...) -- CPU is running -- CPU_ReadMem(4 bytes @ 0x40023808) -- Data:  0A 94 00 00  returns 0x00 (0001ms, 0504ms total)
T2EA8 013:779 JLINK_ReadMem (0x40023810, 0x0008 Bytes, ...) -- CPU is running -- CPU_ReadMem(8 bytes @ 0x40023810) -- Data:  00 00 00 00 00 00 00 00  returns 0x00 (0001ms, 0505ms total)
T2EA8 013:780 JLINK_ReadMem (0x40023818, 0x0004 Bytes, ...) -- CPU is running -- CPU_ReadMem(4 bytes @ 0x40023818) -- Data:  00 00 00 00  returns 0x00 (0001ms, 0506ms total)
T2EA8 013:781 JLINK_ReadMem (0x40023820, 0x0004 Bytes, ...) -- CPU is running -- CPU_ReadMem(4 bytes @ 0x40023820) -- Data:  00 00 00 00  returns 0x00 (0001ms, 0507ms total)
T2EA8 013:782 JLINK_ReadMem (0x40023824, 0x0004 Bytes, ...) -- CPU is running -- CPU_ReadMem(4 bytes @ 0x40023824) -- Data:  00 00 00 00  returns 0x00 (0001ms, 0508ms total)
T2EA8 013:783 JLINK_ReadMem (0x40023830, 0x0008 Bytes, ...) -- CPU is running -- CPU_ReadMem(8 bytes @ 0x40023830) -- Data:  5F 00 10 00 80 00 00 00  returns 0x00 (0001ms, 0509ms total)
T2EA8 013:784 JLINK_ReadMem (0x40023838, 0x0004 Bytes, ...) -- CPU is running -- CPU_ReadMem(4 bytes @ 0x40023838) -- Data:  00 00 00 00  returns 0x00 (0001ms, 0510ms total)
T2EA8 013:785 JLINK_ReadMem (0x40023840, 0x0004 Bytes, ...) -- CPU is running -- CPU_ReadMem(4 bytes @ 0x40023840) -- Data:  0E 00 12 10  returns 0x00 (0001ms, 0511ms total)
T2EA8 013:786 JLINK_ReadMem (0x40023844, 0x0004 Bytes, ...) -- CPU is running -- CPU_ReadMem(4 bytes @ 0x40023844) -- Data:  03 10 00 00  returns 0x00 (0001ms, 0512ms total)
T2EA8 013:787 JLINK_ReadMem (0x40023850, 0x0008 Bytes, ...) -- CPU is running -- CPU_ReadMem(8 bytes @ 0x40023850) -- Data:  FF 91 67 7E F1 00 00 00  returns 0x00 (0001ms, 0513ms total)
T2EA8 013:788 JLINK_ReadMem (0x40023858, 0x0004 Bytes, ...) -- CPU is running -- CPU_ReadMem(4 bytes @ 0x40023858) -- Data:  01 00 00 00  returns 0x00 (0001ms, 0514ms total)
T2EA8 013:789 JLINK_ReadMem (0x40023860, 0x0004 Bytes, ...) -- CPU is running -- CPU_ReadMem(4 bytes @ 0x40023860) -- Data:  FF C9 FE 36  returns 0x00 (0001ms, 0515ms total)
T2EA8 013:790 JLINK_ReadMem (0x40023864, 0x0004 Bytes, ...) -- CPU is running -- CPU_ReadMem(4 bytes @ 0x40023864) -- Data:  33 5F 07 00  returns 0x00 (0001ms, 0516ms total)
T2EA8 013:791 JLINK_ReadMem (0x40023870, 0x0004 Bytes, ...) -- CPU is running -- CPU_ReadMem(4 bytes @ 0x40023870) -- Data:  00 00 00 00  returns 0x00 (0001ms, 0517ms total)
T2EA8 013:792 JLINK_ReadMem (0x40023874, 0x0004 Bytes, ...) -- CPU is running -- CPU_ReadMem(4 bytes @ 0x40023874) -- Data:  00 00 00 1E  returns 0x00 (0001ms, 0518ms total)
T2EA8 013:793 JLINK_ReadMem (0x40023880, 0x0004 Bytes, ...) -- CPU is running -- CPU_ReadMem(4 bytes @ 0x40023880) -- Data:  00 00 00 00  returns 0x00 (0001ms, 0519ms total)
T2EA8 013:794 JLINK_ReadMem (0x40023884, 0x0004 Bytes, ...) -- CPU is running -- CPU_ReadMem(4 bytes @ 0x40023884) -- Data:  00 30 00 20  returns 0x00 (0001ms, 0520ms total)
T2B68 013:797 JLINK_IsHalted()  returns FALSE (0001ms, 0521ms total)
T2B68 013:899 JLINK_IsHalted()  returns FALSE (0000ms, 0520ms total)
T2B68 014:000 JLINK_IsHalted()  returns FALSE (0001ms, 0521ms total)
T2B68 014:102 JLINK_IsHalted()  returns FALSE (0001ms, 0521ms total)
T2B68 014:204 JLINK_IsHalted()  returns FALSE (0001ms, 0521ms total)
T2B68 014:306 JLINK_ReadMemU32(0xE0001004, 0x0001 Items, ...) -- CPU is running -- CPU_ReadMem(4 bytes @ 0xE0001004) -- Data:  AA 16 F2 11  returns 0x01 (0001ms, 0521ms total)
T2EA8 014:307 JLINK_ReadMem (0x20000520, 0x0004 Bytes, ...) -- CPU is running -- CPU_ReadMem(4 bytes @ 0x20000520) -- Data:  01 00 00 00  returns 0x00 (0001ms, 0522ms total)
T2EA8 014:308 JLINK_ReadMem (0x20000698, 0x0004 Bytes, ...) -- CPU is running -- CPU_ReadMem(4 bytes @ 0x20000698) -- Data:  0D A6 E5 3F  returns 0x00 (0001ms, 0523ms total)
T2EA8 014:310 JLINK_ReadMem (0x2000001C, 0x0004 Bytes, ...) -- CPU is running -- CPU_ReadMem(4 bytes @ 0x2000001C) -- Data:  21 EF BF BF  returns 0x00 (0001ms, 0524ms total)
T2EA8 014:311 JLINK_ReadMem (0x20000020, 0x0004 Bytes, ...) -- CPU is running -- CPU_ReadMem(4 bytes @ 0x20000020) -- Data:  1E CA 05 C1  returns 0x00 (0001ms, 0525ms total)
T2EA8 014:312 JLINK_ReadMem (0x20000024, 0x0004 Bytes, ...) -- CPU is running -- CPU_ReadMem(4 bytes @ 0x20000024) -- Data:  91 DB 81 40  returns 0x00 (0001ms, 0526ms total)
T2EA8 014:313 JLINK_ReadMem (0x20000008, 0x0004 Bytes, ...) -- CPU is running -- CPU_ReadMem(4 bytes @ 0x20000008) -- Data:  51 10 0B 42  returns 0x00 (0001ms, 0527ms total)
T2EA8 014:314 JLINK_ReadMem (0x200004A8, 0x0001 Bytes, ...) -- CPU is running -- CPU_ReadMem(1 bytes @ 0x200004A8) -- Data:  00  returns 0x00 (0002ms, 0529ms total)
T2EA8 014:316 JLINK_ReadMem (0x20000470, 0x0001 Bytes, ...) -- CPU is running -- CPU_ReadMem(1 bytes @ 0x20000470) -- Data:  01  returns 0x00 (0001ms, 0530ms total)
T2EA8 014:317 JLINK_ReadMem (0x200005F8, 0x0002 Bytes, ...) -- CPU is running -- CPU_ReadMem(2 bytes @ 0x200005F8) -- Data:  00 00  returns 0x00 (0001ms, 0531ms total)
T2EA8 014:318 JLINK_ReadMem (0x200004EC, 0x0004 Bytes, ...) -- CPU is running -- CPU_ReadMem(4 bytes @ 0x200004EC) -- Data:  00 00 00 00  returns 0x00 (0001ms, 0532ms total)
T2EA8 014:319 JLINK_ReadMem (0x200004E4, 0x0004 Bytes, ...) -- CPU is running -- CPU_ReadMem(4 bytes @ 0x200004E4) -- Data:  00 00 00 00  returns 0x00 (0002ms, 0534ms total)
T2EA8 014:321 JLINK_ReadMem (0x200004F0, 0x0004 Bytes, ...) -- CPU is running -- CPU_ReadMem(4 bytes @ 0x200004F0) -- Data:  00 00 00 00  returns 0x00 (0001ms, 0535ms total)
T2EA8 014:323 JLINK_ReadMem (0x200004F4, 0x0004 Bytes, ...) -- CPU is running -- CPU_ReadMem(4 bytes @ 0x200004F4) -- Data:  07 10 0B 44  returns 0x00 (0001ms, 0536ms total)
T2EA8 014:325 JLINK_ReadMem (0x200004D8, 0x0004 Bytes, ...) -- CPU is running -- CPU_ReadMem(4 bytes @ 0x200004D8) -- Data:  00 00 00 00  returns 0x00 (0001ms, 0537ms total)
T2EA8 014:326 JLINK_ReadMem (0x200004E8, 0x0004 Bytes, ...) -- CPU is running -- CPU_ReadMem(4 bytes @ 0x200004E8) -- Data:  60 00 C8 41  returns 0x00 (0001ms, 0538ms total)
T2EA8 014:328 JLINK_ReadMem (0x200005F8, 0x0002 Bytes, ...) -- CPU is running -- CPU_ReadMem(2 bytes @ 0x200005F8) -- Data:  00 00  returns 0x00 (0001ms, 0539ms total)
T2EA8 014:329 JLINK_ReadMem (0x200004EC, 0x0004 Bytes, ...) -- CPU is running -- CPU_ReadMem(4 bytes @ 0x200004EC) -- Data:  00 00 00 00  returns 0x00 (0001ms, 0540ms total)
T2EA8 014:330 JLINK_ReadMem (0x20000024, 0x0004 Bytes, ...) -- CPU is running -- CPU_ReadMem(4 bytes @ 0x20000024) -- Data:  C9 BA 82 40  returns 0x00 (0001ms, 0541ms total)
T2EA8 014:333 JLINK_ReadMem (0x200004D8, 0x0004 Bytes, ...) -- CPU is running -- CPU_ReadMem(4 bytes @ 0x200004D8) -- Data:  00 00 00 00  returns 0x00 (0001ms, 0542ms total)
T2EA8 014:334 JLINK_ReadMem (0x200004E0, 0x0004 Bytes, ...) -- CPU is running -- CPU_ReadMem(4 bytes @ 0x200004E0) -- Data:  00 00 00 00  returns 0x00 (0001ms, 0543ms total)
T2EA8 014:337 JLINK_ReadMem (0x200005F8, 0x0002 Bytes, ...) -- CPU is running -- CPU_ReadMem(2 bytes @ 0x200005F8) -- Data:  00 00  returns 0x00 (0001ms, 0544ms total)
T2EA8 014:353 JLINK_ReadMem (0x40004400, 0x0018 Bytes, ...) -- CPU is running -- CPU_ReadMem(24 bytes @ 0x40004400) -- Data:  00 00 00 00 00 00 00 00 6C 01 00 00 AC 20 00 00 ...  returns 0x00 (0002ms, 0546ms total)
T2EA8 014:355 JLINK_ReadMem (0x40004418, 0x0004 Bytes, ...) -- CPU is running -- CPU_ReadMem(4 bytes @ 0x40004418) -- Data:  00 00 00 00  returns 0x00 (0001ms, 0547ms total)
T2EA8 014:374 JLINK_ReadMem (0x40023800, 0x0008 Bytes, ...) -- CPU is running -- CPU_ReadMem(8 bytes @ 0x40023800) -- Data:  83 87 03 03 19 54 40 07  returns 0x00 (0002ms, 0549ms total)
T2EA8 014:376 JLINK_ReadMem (0x40023808, 0x0004 Bytes, ...) -- CPU is running -- CPU_ReadMem(4 bytes @ 0x40023808) -- Data:  0A 94 00 00  returns 0x00 (0001ms, 0550ms total)
T2EA8 014:377 JLINK_ReadMem (0x40023810, 0x0008 Bytes, ...) -- CPU is running -- CPU_ReadMem(8 bytes @ 0x40023810) -- Data:  00 00 00 00 00 00 00 00  returns 0x00 (0001ms, 0551ms total)
